r_l	V(vo)	I(RL1)
1.000000000000000e-03	4.024288e-04	4.024288e-01
1.004615790278395e-03	4.042867e-04	4.024292e-01
1.009252886076684e-03	4.061532e-04	4.024296e-01
1.013911385736680e-03	4.080284e-04	4.024300e-01
1.018591388054117e-03	4.099122e-04	4.024304e-01
1.023292992280755e-03	4.118047e-04	4.024309e-01
1.028016298126474e-03	4.137059e-04	4.024313e-01
1.032761405761398e-03	4.156159e-04	4.024317e-01
1.037528415818013e-03	4.175348e-04	4.024321e-01
1.042317429393305e-03	4.194624e-04	4.024325e-01
1.047128548050900e-03	4.213990e-04	4.024330e-01
1.051961873823224e-03	4.233446e-04	4.024334e-01
1.056817509213659e-03	4.252991e-04	4.024338e-01
1.061695557198725e-03	4.272627e-04	4.024343e-01
1.066596121230259e-03	4.292353e-04	4.024347e-01
1.071519305237607e-03	4.312170e-04	4.024351e-01
1.076465213629836e-03	4.332079e-04	4.024356e-01
1.081433951297939e-03	4.352080e-04	4.024360e-01
1.086425623617067e-03	4.372173e-04	4.024364e-01
1.091440336448758e-03	4.392359e-04	4.024369e-01
1.096478196143186e-03	4.412638e-04	4.024373e-01
1.101539309541416e-03	4.433010e-04	4.024378e-01
1.106623783977668e-03	4.453477e-04	4.024383e-01
1.111731727281593e-03	4.474039e-04	4.024387e-01
1.116863247780563e-03	4.494695e-04	4.024391e-01
1.122018454301965e-03	4.515446e-04	4.024396e-01
1.127197456175512e-03	4.536294e-04	4.024401e-01
1.132400363235559e-03	4.557238e-04	4.024405e-01
1.137627285823433e-03	4.578278e-04	4.024410e-01
1.142878334789774e-03	4.599416e-04	4.024414e-01
1.148153621496885e-03	4.620652e-04	4.024419e-01
1.153453257821095e-03	4.641985e-04	4.024424e-01
1.158777356155128e-03	4.663417e-04	4.024429e-01
1.164126029410494e-03	4.684948e-04	4.024433e-01
1.169499391019873e-03	4.706578e-04	4.024438e-01
1.174897554939532e-03	4.728308e-04	4.024443e-01
1.180320635651732e-03	4.750139e-04	4.024448e-01
1.185768748167163e-03	4.772070e-04	4.024453e-01
1.191242008027377e-03	4.794103e-04	4.024457e-01
1.196740531307246e-03	4.816237e-04	4.024462e-01
1.202264434617416e-03	4.838474e-04	4.024467e-01
1.207813835106783e-03	4.860813e-04	4.024472e-01
1.213388850464980e-03	4.883255e-04	4.024477e-01
1.218989598924870e-03	4.905802e-04	4.024482e-01
1.224616199265052e-03	4.928452e-04	4.024487e-01
1.230268770812385e-03	4.951207e-04	4.024492e-01
1.235947433444514e-03	4.974067e-04	4.024497e-01
1.241652307592415e-03	4.997032e-04	4.024502e-01
1.247383514242947e-03	5.020104e-04	4.024507e-01
1.253141174941420e-03	5.043282e-04	4.024512e-01
1.258925411794171e-03	5.066567e-04	4.024518e-01
1.264736347471155e-03	5.089960e-04	4.024523e-01
1.270574105208546e-03	5.113461e-04	4.024528e-01
1.276438808811348e-03	5.137070e-04	4.024533e-01
1.282330582656026e-03	5.160788e-04	4.024538e-01
1.288249551693138e-03	5.184616e-04	4.024543e-01
1.294195841449991e-03	5.208554e-04	4.024549e-01
1.300169578033295e-03	5.232603e-04	4.024554e-01
1.306170888131846e-03	5.256762e-04	4.024559e-01
1.312199899019208e-03	5.281033e-04	4.024565e-01
1.318256738556412e-03	5.305416e-04	4.024570e-01
1.324341535194670e-03	5.329913e-04	4.024575e-01
1.330454417978096e-03	5.354522e-04	4.024581e-01
1.336595516546447e-03	5.379244e-04	4.024586e-01
1.342764961137869e-03	5.404081e-04	4.024592e-01
1.348962882591659e-03	5.429032e-04	4.024597e-01
1.355189412351041e-03	5.454099e-04	4.024603e-01
1.361444682465956e-03	5.479282e-04	4.024608e-01
1.367728825595855e-03	5.504580e-04	4.024614e-01
1.374041975012521e-03	5.529996e-04	4.024619e-01
1.380384264602891e-03	5.555529e-04	4.024625e-01
1.386755828871895e-03	5.581180e-04	4.024631e-01
1.393156802945309e-03	5.606950e-04	4.024636e-01
1.399587322572624e-03	5.632838e-04	4.024642e-01
1.406047524129920e-03	5.658846e-04	4.024648e-01
1.412537544622761e-03	5.684974e-04	4.024653e-01
1.419057521689099e-03	5.711223e-04	4.024659e-01
1.425607593602195e-03	5.737593e-04	4.024665e-01
1.432187899273551e-03	5.764085e-04	4.024671e-01
1.438798578255852e-03	5.790700e-04	4.024677e-01
1.445439770745934e-03	5.817437e-04	4.024683e-01
1.452111617587750e-03	5.844297e-04	4.024689e-01
1.458814260275356e-03	5.871282e-04	4.024695e-01
1.465547840955919e-03	5.898391e-04	4.024701e-01
1.472312502432726e-03	5.925626e-04	4.024706e-01
1.479108388168215e-03	5.952986e-04	4.024712e-01
1.485935642287015e-03	5.980473e-04	4.024719e-01
1.492794409579004e-03	6.008086e-04	4.024725e-01
1.499684835502382e-03	6.035828e-04	4.024731e-01
1.506607066186750e-03	6.063697e-04	4.024737e-01
1.513561248436217e-03	6.091695e-04	4.024743e-01
1.520547529732504e-03	6.119823e-04	4.024749e-01
1.527566058238081e-03	6.148080e-04	4.024756e-01
1.534616982799303e-03	6.176468e-04	4.024762e-01
1.541700452949568e-03	6.204987e-04	4.024768e-01
1.548816618912490e-03	6.233638e-04	4.024774e-01
1.555965631605084e-03	6.262420e-04	4.024781e-01
1.563147642640963e-03	6.291337e-04	4.024787e-01
1.570362804333562e-03	6.320386e-04	4.024794e-01
1.577611269699358e-03	6.349570e-04	4.024800e-01
1.584893192461123e-03	6.378888e-04	4.024806e-01
1.592208727051180e-03	6.408342e-04	4.024813e-01
1.599558028614679e-03	6.437932e-04	4.024819e-01
1.606941253012888e-03	6.467659e-04	4.024826e-01
1.614358556826497e-03	6.497523e-04	4.024833e-01
1.621810097358941e-03	6.527525e-04	4.024839e-01
1.629296032639733e-03	6.557665e-04	4.024846e-01
1.636816521427819e-03	6.587945e-04	4.024853e-01
1.644371723214943e-03	6.618365e-04	4.024859e-01
1.651961798229026e-03	6.648924e-04	4.024866e-01
1.659586907437572e-03	6.679626e-04	4.024872e-01
1.667247212551074e-03	6.710469e-04	4.024879e-01
1.674942876026449e-03	6.741455e-04	4.024886e-01
1.682674061070479e-03	6.772583e-04	4.024893e-01
1.690440931643276e-03	6.803856e-04	4.024900e-01
1.698243652461756e-03	6.835273e-04	4.024907e-01
1.706082389003136e-03	6.866835e-04	4.024914e-01
1.713957307508438e-03	6.898543e-04	4.024921e-01
1.721868574986019e-03	6.930397e-04	4.024928e-01
1.729816359215114e-03	6.962398e-04	4.024935e-01
1.737800828749388e-03	6.994547e-04	4.024942e-01
1.745822152920517e-03	7.026845e-04	4.024949e-01
1.753880501841774e-03	7.059292e-04	4.024956e-01
1.761976046411642e-03	7.091889e-04	4.024963e-01
1.770108958317435e-03	7.124636e-04	4.024971e-01
1.778279410038937e-03	7.157535e-04	4.024978e-01
1.786487574852065e-03	7.190586e-04	4.024985e-01
1.794733626832540e-03	7.223789e-04	4.024992e-01
1.803017740859583e-03	7.257146e-04	4.025000e-01
1.811340092619617e-03	7.290657e-04	4.025007e-01
1.819700858609998e-03	7.324322e-04	4.025015e-01
1.828100216142758e-03	7.358143e-04	4.025022e-01
1.836538343348361e-03	7.392121e-04	4.025030e-01
1.845015419179489e-03	7.426255e-04	4.025037e-01
1.853531623414827e-03	7.460547e-04	4.025044e-01
1.862087136662883e-03	7.494998e-04	4.025052e-01
1.870682140365816e-03	7.529607e-04	4.025060e-01
1.879316816803284e-03	7.564377e-04	4.025067e-01
1.887991349096310e-03	7.599307e-04	4.025075e-01
1.896705921211163e-03	7.634399e-04	4.025083e-01
1.905460717963264e-03	7.669652e-04	4.025091e-01
1.914255925021102e-03	7.705069e-04	4.025098e-01
1.923091728910175e-03	7.740649e-04	4.025106e-01
1.931968317016941e-03	7.776393e-04	4.025114e-01
1.940885877592795e-03	7.812302e-04	4.025122e-01
1.949844599758063e-03	7.848378e-04	4.025130e-01
1.958844673506007e-03	7.884620e-04	4.025138e-01
1.967886289706863e-03	7.921029e-04	4.025146e-01
1.976969640111879e-03	7.957607e-04	4.025154e-01
1.986094917357390e-03	7.994354e-04	4.025162e-01
1.995262314968898e-03	8.031271e-04	4.025170e-01
2.004472027365180e-03	8.068358e-04	4.025178e-01
2.013724249862407e-03	8.105616e-04	4.025187e-01
2.023019178678291e-03	8.143046e-04	4.025195e-01
2.032357010936241e-03	8.180650e-04	4.025203e-01
2.041737944669549e-03	8.218427e-04	4.025211e-01
2.051162178825585e-03	8.256378e-04	4.025220e-01
2.060629913270020e-03	8.294506e-04	4.025228e-01
2.070141348791062e-03	8.332809e-04	4.025237e-01
2.079696687103716e-03	8.371289e-04	4.025245e-01
2.089296130854060e-03	8.409947e-04	4.025254e-01
2.098939883623545e-03	8.448783e-04	4.025262e-01
2.108628149933311e-03	8.487799e-04	4.025271e-01
2.118361135248523e-03	8.526995e-04	4.025279e-01
2.128139045982733e-03	8.566373e-04	4.025288e-01
2.137962089502254e-03	8.605932e-04	4.025297e-01
2.147830474130555e-03	8.645674e-04	4.025306e-01
2.157744409152689e-03	8.685599e-04	4.025314e-01
2.167704104819717e-03	8.725710e-04	4.025323e-01
2.177709772353182e-03	8.766005e-04	4.025332e-01
2.187761623949575e-03	8.806486e-04	4.025341e-01
2.197859872784848e-03	8.847155e-04	4.025350e-01
2.208004733018923e-03	8.888011e-04	4.025359e-01
2.218196419800242e-03	8.929057e-04	4.025368e-01
2.228435149270328e-03	8.970292e-04	4.025377e-01
2.238721138568364e-03	9.011717e-04	4.025386e-01
2.249054605835805e-03	9.053334e-04	4.025395e-01
2.259435770221003e-03	9.095143e-04	4.025404e-01
2.269864851883847e-03	9.137145e-04	4.025414e-01
2.280342072000443e-03	9.179342e-04	4.025423e-01
2.290867652767798e-03	9.221733e-04	4.025432e-01
2.301441817408535e-03	9.264320e-04	4.025442e-01
2.312064790175621e-03	9.307104e-04	4.025451e-01
2.322736796357133e-03	9.350086e-04	4.025460e-01
2.333458062281029e-03	9.393266e-04	4.025470e-01
2.344228815319949e-03	9.436645e-04	4.025480e-01
2.355049283896037e-03	9.480226e-04	4.025489e-01
2.365919697485785e-03	9.524007e-04	4.025499e-01
2.376840286624904e-03	9.567991e-04	4.025508e-01
2.387811282913206e-03	9.612178e-04	4.025518e-01
2.398832919019519e-03	9.656569e-04	4.025528e-01
2.409905428686623e-03	9.701166e-04	4.025538e-01
2.421029046736207e-03	9.745968e-04	4.025548e-01
2.432204009073844e-03	9.790978e-04	4.025558e-01
2.443430552694001e-03	9.836195e-04	4.025568e-01
2.454708915685060e-03	9.881621e-04	4.025578e-01
2.466039337234369e-03	9.927257e-04	4.025588e-01
2.477422057633316e-03	9.973105e-04	4.025598e-01
2.488857318282421e-03	1.001916e-03	4.025608e-01
2.500345361696462e-03	1.006544e-03	4.025618e-01
2.511886431509611e-03	1.011192e-03	4.025628e-01
2.523480772480606e-03	1.015862e-03	4.025639e-01
2.535128630497939e-03	1.020554e-03	4.025649e-01
2.546830252585073e-03	1.025267e-03	4.025659e-01
2.558585886905678e-03	1.030002e-03	4.025670e-01
2.570395782768896e-03	1.034759e-03	4.025680e-01
2.582260190634629e-03	1.039538e-03	4.025691e-01
2.594179362118847e-03	1.044339e-03	4.025701e-01
2.606153549998929e-03	1.049162e-03	4.025712e-01
2.618183008219019e-03	1.054008e-03	4.025723e-01
2.630267991895416e-03	1.058876e-03	4.025733e-01
2.642408757321981e-03	1.063766e-03	4.025744e-01
2.654605561975574e-03	1.068679e-03	4.025755e-01
2.666858664521515e-03	1.073615e-03	4.025766e-01
2.679168324819067e-03	1.078573e-03	4.025777e-01
2.691534803926952e-03	1.083555e-03	4.025788e-01
2.703958364108880e-03	1.088559e-03	4.025799e-01
2.716439268839119e-03	1.093587e-03	4.025810e-01
2.728977782808078e-03	1.098638e-03	4.025821e-01
2.741574171927919e-03	1.103712e-03	4.025832e-01
2.754228703338204e-03	1.108809e-03	4.025843e-01
2.766941645411549e-03	1.113930e-03	4.025854e-01
2.779713267759327e-03	1.119075e-03	4.025866e-01
2.792543841237376e-03	1.124244e-03	4.025877e-01
2.805433637951752e-03	1.129436e-03	4.025889e-01
2.818382931264493e-03	1.134653e-03	4.025900e-01
2.831391995799419e-03	1.139893e-03	4.025912e-01
2.844461107447955e-03	1.145158e-03	4.025923e-01
2.857590543374987e-03	1.150447e-03	4.025935e-01
2.870780582024732e-03	1.155761e-03	4.025947e-01
2.884031503126647e-03	1.161099e-03	4.025958e-01
2.897343587701364e-03	1.166462e-03	4.025970e-01
2.910717118066647e-03	1.171850e-03	4.025982e-01
2.924152377843377e-03	1.177262e-03	4.025994e-01
2.937649651961573e-03	1.182699e-03	4.026006e-01
2.951209226666428e-03	1.188162e-03	4.026018e-01
2.964831389524386e-03	1.193650e-03	4.026030e-01
2.978516429429233e-03	1.199163e-03	4.026042e-01
2.992264636608233e-03	1.204702e-03	4.026054e-01
3.006076302628275e-03	1.210266e-03	4.026067e-01
3.019951720402061e-03	1.215856e-03	4.026079e-01
3.033891184194316e-03	1.221472e-03	4.026091e-01
3.047894989628029e-03	1.227114e-03	4.026104e-01
3.061963433690723e-03	1.232782e-03	4.026116e-01
3.076096814740754e-03	1.238476e-03	4.026129e-01
3.090295432513637e-03	1.244197e-03	4.026141e-01
3.104559588128403e-03	1.249944e-03	4.026154e-01
3.118889584093985e-03	1.255717e-03	4.026167e-01
3.133285724315633e-03	1.261517e-03	4.026180e-01
3.147748314101364e-03	1.267344e-03	4.026192e-01
3.162277660168428e-03	1.273198e-03	4.026205e-01
3.176874070649820e-03	1.279079e-03	4.026218e-01
3.191537855100811e-03	1.284987e-03	4.026231e-01
3.206269324505516e-03	1.290922e-03	4.026244e-01
3.221068791283485e-03	1.296885e-03	4.026257e-01
3.235936569296333e-03	1.302876e-03	4.026271e-01
3.250872973854395e-03	1.308894e-03	4.026284e-01
3.265878321723410e-03	1.314940e-03	4.026297e-01
3.280952931131243e-03	1.321014e-03	4.026310e-01
3.296097121774630e-03	1.327115e-03	4.026324e-01
3.311311214825964e-03	1.333246e-03	4.026338e-01
3.326595532940099e-03	1.339404e-03	4.026351e-01
3.341950400261196e-03	1.345591e-03	4.026365e-01
3.357376142429601e-03	1.351807e-03	4.026378e-01
3.372873086588744e-03	1.358051e-03	4.026392e-01
3.388441561392081e-03	1.364324e-03	4.026406e-01
3.404081897010065e-03	1.370626e-03	4.026420e-01
3.419794425137145e-03	1.376958e-03	4.026434e-01
3.435579478998803e-03	1.383318e-03	4.026448e-01
3.451437393358620e-03	1.389708e-03	4.026462e-01
3.467368504525374e-03	1.396128e-03	4.026476e-01
3.483373150360176e-03	1.402577e-03	4.026490e-01
3.499451670283631e-03	1.409056e-03	4.026504e-01
3.515604405283040e-03	1.415565e-03	4.026519e-01
3.531831697919629e-03	1.422104e-03	4.026533e-01
3.548133892335815e-03	1.428673e-03	4.026548e-01
3.564511334262503e-03	1.435273e-03	4.026562e-01
3.580964371026422e-03	1.441903e-03	4.026577e-01
3.597493351557485e-03	1.448564e-03	4.026591e-01
3.614098626396195e-03	1.455255e-03	4.026606e-01
3.630780547701076e-03	1.461978e-03	4.026621e-01
3.647539469256141e-03	1.468731e-03	4.026636e-01
3.664375746478397e-03	1.475516e-03	4.026651e-01
3.681289736425378e-03	1.482332e-03	4.026666e-01
3.698281797802727e-03	1.489180e-03	4.026681e-01
3.715352290971790e-03	1.496059e-03	4.026696e-01
3.732501577957271e-03	1.502971e-03	4.026711e-01
3.749730022454901e-03	1.509914e-03	4.026726e-01
3.767037989839156e-03	1.516889e-03	4.026742e-01
3.784425847171001e-03	1.523896e-03	4.026757e-01
3.801893963205680e-03	1.530936e-03	4.026773e-01
3.819442708400534e-03	1.538009e-03	4.026788e-01
3.837072454922857e-03	1.545114e-03	4.026804e-01
3.854783576657788e-03	1.552252e-03	4.026820e-01
3.872576449216242e-03	1.559423e-03	4.026836e-01
3.890451449942877e-03	1.566627e-03	4.026851e-01
3.908408957924092e-03	1.573864e-03	4.026867e-01
3.926449353996071e-03	1.581135e-03	4.026883e-01
3.944573020752857e-03	1.588440e-03	4.026899e-01
3.962780342554467e-03	1.595778e-03	4.026915e-01
3.981071705535046e-03	1.603150e-03	4.026932e-01
3.999447497611048e-03	1.610557e-03	4.026948e-01
4.017908108489474e-03	1.617997e-03	4.026965e-01
4.036453929676126e-03	1.625472e-03	4.026981e-01
4.055085354483914e-03	1.632982e-03	4.026997e-01
4.073802778041204e-03	1.640526e-03	4.027014e-01
4.092606597300186e-03	1.648105e-03	4.027031e-01
4.111497211045301e-03	1.655719e-03	4.027047e-01
4.130475019901691e-03	1.663369e-03	4.027064e-01
4.149540426343709e-03	1.671054e-03	4.027081e-01
4.168693834703434e-03	1.678774e-03	4.027098e-01
4.187935651179264e-03	1.686530e-03	4.027115e-01
4.207266283844522e-03	1.694322e-03	4.027133e-01
4.226686142656111e-03	1.702150e-03	4.027150e-01
4.246195639463211e-03	1.710014e-03	4.027167e-01
4.265795188016010e-03	1.717914e-03	4.027185e-01
4.285485203974479e-03	1.725851e-03	4.027202e-01
4.305266104917191e-03	1.733825e-03	4.027219e-01
4.325138310350172e-03	1.741836e-03	4.027237e-01
4.345102241715801e-03	1.749883e-03	4.027255e-01
4.365158322401745e-03	1.757968e-03	4.027273e-01
4.385306977749944e-03	1.766091e-03	4.027291e-01
4.405548635065620e-03	1.774250e-03	4.027309e-01
4.425883723626354e-03	1.782448e-03	4.027327e-01
4.446312674691175e-03	1.790683e-03	4.027345e-01
4.466835921509721e-03	1.798957e-03	4.027363e-01
4.487453899331411e-03	1.807269e-03	4.027381e-01
4.508167045414692e-03	1.815619e-03	4.027400e-01
4.528975799036299e-03	1.824008e-03	4.027418e-01
4.549880601500579e-03	1.832436e-03	4.027437e-01
4.570881896148843e-03	1.840902e-03	4.027455e-01
4.591980128368780e-03	1.849408e-03	4.027474e-01
4.613175745603888e-03	1.857953e-03	4.027493e-01
4.634469197362975e-03	1.866538e-03	4.027512e-01
4.655860935229686e-03	1.875162e-03	4.027531e-01
4.677351412872078e-03	1.883827e-03	4.027550e-01
4.698941086052251e-03	1.892531e-03	4.027569e-01
4.720630412636003e-03	1.901276e-03	4.027588e-01
4.742419852602545e-03	1.910061e-03	4.027608e-01
4.764309868054257e-03	1.918886e-03	4.027627e-01
4.786300923226483e-03	1.927753e-03	4.027646e-01
4.808393484497387e-03	1.936660e-03	4.027666e-01
4.830588020397828e-03	1.945609e-03	4.027686e-01
4.852885001621313e-03	1.954599e-03	4.027706e-01
4.875284901033967e-03	1.963631e-03	4.027725e-01
4.897788193684567e-03	1.972704e-03	4.027745e-01
4.920395356814614e-03	1.981820e-03	4.027766e-01
4.943106869868460e-03	1.990977e-03	4.027786e-01
4.965923214503468e-03	2.000178e-03	4.027806e-01
4.988844874600230e-03	2.009420e-03	4.027826e-01
5.011872336272831e-03	2.018705e-03	4.027847e-01
5.035006087879157e-03	2.028034e-03	4.027867e-01
5.058246620031250e-03	2.037405e-03	4.027888e-01
5.081594425605716e-03	2.046820e-03	4.027909e-01
5.105049999754174e-03	2.056278e-03	4.027930e-01
5.128613839913761e-03	2.065780e-03	4.027950e-01
5.152286445817678e-03	2.075326e-03	4.027972e-01
5.176068319505791e-03	2.084916e-03	4.027992e-01
5.199959965335275e-03	2.094551e-03	4.028014e-01
5.223961889991313e-03	2.104230e-03	4.028035e-01
5.248074602497843e-03	2.113954e-03	4.028057e-01
5.272298614228345e-03	2.123723e-03	4.028078e-01
5.296634438916696e-03	2.133537e-03	4.028100e-01
5.321082592668061e-03	2.143397e-03	4.028122e-01
5.345643593969837e-03	2.153302e-03	4.028143e-01
5.370317963702648e-03	2.163253e-03	4.028165e-01
5.395106225151399e-03	2.173250e-03	4.028187e-01
5.420008904016361e-03	2.183293e-03	4.028209e-01
5.445026528424335e-03	2.193383e-03	4.028232e-01
5.470159628939841e-03	2.203519e-03	4.028254e-01
5.495408738576371e-03	2.213703e-03	4.028276e-01
5.520774392807700e-03	2.223933e-03	4.028299e-01
5.546257129579234e-03	2.234210e-03	4.028322e-01
5.571857489319426e-03	2.244536e-03	4.028344e-01
5.597576014951230e-03	2.254909e-03	4.028367e-01
5.623413251903621e-03	2.265330e-03	4.028390e-01
5.649369748123157e-03	2.275799e-03	4.028413e-01
5.675446054085603e-03	2.286317e-03	4.028436e-01
5.701642722807608e-03	2.296884e-03	4.028459e-01
5.727960309858426e-03	2.307499e-03	4.028483e-01
5.754399373371704e-03	2.318163e-03	4.028506e-01
5.780960474057317e-03	2.328877e-03	4.028530e-01
5.807644175213257e-03	2.339641e-03	4.028553e-01
5.834451042737585e-03	2.350454e-03	4.028577e-01
5.861381645140426e-03	2.361317e-03	4.028601e-01
5.888436553556030e-03	2.372230e-03	4.028625e-01
5.915616341754881e-03	2.383194e-03	4.028649e-01
5.942921586155868e-03	2.394209e-03	4.028674e-01
5.970352865838511e-03	2.405275e-03	4.028698e-01
5.997910762555238e-03	2.416392e-03	4.028723e-01
6.025595860743723e-03	2.427560e-03	4.028747e-01
6.053408747539281e-03	2.438780e-03	4.028772e-01
6.081350012787326e-03	2.450052e-03	4.028797e-01
6.109420249055869e-03	2.461376e-03	4.028822e-01
6.137620051648091e-03	2.472753e-03	4.028847e-01
6.165950018614971e-03	2.484182e-03	4.028872e-01
6.194410750767966e-03	2.495664e-03	4.028897e-01
6.223002851691747e-03	2.507200e-03	4.028922e-01
6.251726927757012e-03	2.518788e-03	4.028948e-01
6.280583588133334e-03	2.530430e-03	4.028974e-01
6.309573444802088e-03	2.542127e-03	4.029000e-01
6.338697112569426e-03	2.553877e-03	4.029025e-01
6.367955209079316e-03	2.565682e-03	4.029051e-01
6.397348354826640e-03	2.577541e-03	4.029077e-01
6.426877173170357e-03	2.589455e-03	4.029104e-01
6.456542290346716e-03	2.601425e-03	4.029130e-01
6.486344335482547e-03	2.613450e-03	4.029157e-01
