r_l	V(vin)	V(vo)	I(RL1)	I(VIN)
1.000000000000000e-03	9.500000e+00	1.500414e-03	1.500414e+00	-1.501474e+00
1.004615790278395e-03	9.500000e+00	1.507340e-03	1.500414e+00	-1.501474e+00
1.009252886076684e-03	9.500000e+00	1.514298e-03	1.500414e+00	-1.501474e+00
1.013911385736680e-03	9.500000e+00	1.521287e-03	1.500414e+00	-1.501474e+00
1.018591388054117e-03	9.500000e+00	1.528309e-03	1.500414e+00	-1.501474e+00
1.023292992280755e-03	9.500000e+00	1.535363e-03	1.500414e+00	-1.501474e+00
1.028016298126474e-03	9.500000e+00	1.542450e-03	1.500414e+00	-1.501474e+00
1.032761405761398e-03	9.500000e+00	1.549570e-03	1.500414e+00	-1.501474e+00
1.037528415818013e-03	9.500000e+00	1.556722e-03	1.500414e+00	-1.501474e+00
1.042317429393305e-03	9.500000e+00	1.563908e-03	1.500414e+00	-1.501474e+00
1.047128548050900e-03	9.500000e+00	1.571127e-03	1.500414e+00	-1.501474e+00
1.051961873823224e-03	9.500000e+00	1.578379e-03	1.500414e+00	-1.501474e+00
1.056817509213659e-03	9.500000e+00	1.585664e-03	1.500414e+00	-1.501474e+00
1.061695557198725e-03	9.500000e+00	1.592983e-03	1.500414e+00	-1.501474e+00
1.066596121230259e-03	9.500000e+00	1.600336e-03	1.500414e+00	-1.501474e+00
1.071519305237607e-03	9.500000e+00	1.607723e-03	1.500414e+00	-1.501474e+00
1.076465213629836e-03	9.500000e+00	1.615144e-03	1.500414e+00	-1.501474e+00
1.081433951297939e-03	9.500000e+00	1.622599e-03	1.500414e+00	-1.501474e+00
1.086425623617067e-03	9.500000e+00	1.630088e-03	1.500414e+00	-1.501474e+00
1.091440336448758e-03	9.500000e+00	1.637612e-03	1.500414e+00	-1.501474e+00
1.096478196143186e-03	9.500000e+00	1.645171e-03	1.500414e+00	-1.501474e+00
1.101539309541416e-03	9.500000e+00	1.652765e-03	1.500414e+00	-1.501474e+00
1.106623783977668e-03	9.500000e+00	1.660394e-03	1.500414e+00	-1.501474e+00
1.111731727281593e-03	9.500000e+00	1.668058e-03	1.500414e+00	-1.501474e+00
1.116863247780563e-03	9.500000e+00	1.675757e-03	1.500414e+00	-1.501474e+00
1.122018454301965e-03	9.500000e+00	1.683492e-03	1.500414e+00	-1.501474e+00
1.127197456175512e-03	9.500000e+00	1.691263e-03	1.500414e+00	-1.501474e+00
1.132400363235559e-03	9.500000e+00	1.699069e-03	1.500414e+00	-1.501474e+00
1.137627285823433e-03	9.500000e+00	1.706912e-03	1.500414e+00	-1.501474e+00
1.142878334789774e-03	9.500000e+00	1.714791e-03	1.500414e+00	-1.501474e+00
1.148153621496885e-03	9.500000e+00	1.722706e-03	1.500414e+00	-1.501474e+00
1.153453257821095e-03	9.500000e+00	1.730657e-03	1.500414e+00	-1.501474e+00
1.158777356155128e-03	9.500000e+00	1.738646e-03	1.500414e+00	-1.501474e+00
1.164126029410494e-03	9.500000e+00	1.746671e-03	1.500414e+00	-1.501474e+00
1.169499391019873e-03	9.500000e+00	1.754733e-03	1.500414e+00	-1.501474e+00
1.174897554939532e-03	9.500000e+00	1.762833e-03	1.500414e+00	-1.501474e+00
1.180320635651732e-03	9.500000e+00	1.770969e-03	1.500414e+00	-1.501474e+00
1.185768748167163e-03	9.500000e+00	1.779144e-03	1.500414e+00	-1.501474e+00
1.191242008027377e-03	9.500000e+00	1.787356e-03	1.500414e+00	-1.501473e+00
1.196740531307246e-03	9.500000e+00	1.795606e-03	1.500414e+00	-1.501473e+00
1.202264434617416e-03	9.500000e+00	1.803894e-03	1.500414e+00	-1.501473e+00
1.207813835106783e-03	9.500000e+00	1.812220e-03	1.500414e+00	-1.501473e+00
1.213388850464980e-03	9.500000e+00	1.820585e-03	1.500414e+00	-1.501473e+00
1.218989598924870e-03	9.500000e+00	1.828989e-03	1.500414e+00	-1.501473e+00
1.224616199265052e-03	9.500000e+00	1.837431e-03	1.500414e+00	-1.501473e+00
1.230268770812385e-03	9.500000e+00	1.845912e-03	1.500414e+00	-1.501473e+00
1.235947433444514e-03	9.500000e+00	1.854432e-03	1.500414e+00	-1.501473e+00
1.241652307592415e-03	9.500000e+00	1.862992e-03	1.500414e+00	-1.501473e+00
1.247383514242947e-03	9.500000e+00	1.871591e-03	1.500414e+00	-1.501473e+00
1.253141174941420e-03	9.500000e+00	1.880230e-03	1.500414e+00	-1.501473e+00
1.258925411794171e-03	9.500000e+00	1.888909e-03	1.500414e+00	-1.501473e+00
1.264736347471155e-03	9.500000e+00	1.897627e-03	1.500414e+00	-1.501473e+00
1.270574105208546e-03	9.500000e+00	1.906387e-03	1.500414e+00	-1.501473e+00
1.276438808811348e-03	9.500000e+00	1.915186e-03	1.500413e+00	-1.501473e+00
1.282330582656026e-03	9.500000e+00	1.924026e-03	1.500413e+00	-1.501473e+00
1.288249551693138e-03	9.500000e+00	1.932907e-03	1.500413e+00	-1.501473e+00
1.294195841449991e-03	9.500000e+00	1.941829e-03	1.500413e+00	-1.501473e+00
1.300169578033295e-03	9.500000e+00	1.950792e-03	1.500413e+00	-1.501473e+00
1.306170888131846e-03	9.500000e+00	1.959796e-03	1.500413e+00	-1.501473e+00
1.312199899019208e-03	9.500000e+00	1.968842e-03	1.500413e+00	-1.501473e+00
1.318256738556412e-03	9.500000e+00	1.977930e-03	1.500413e+00	-1.501473e+00
1.324341535194670e-03	9.500000e+00	1.987060e-03	1.500413e+00	-1.501473e+00
1.330454417978096e-03	9.500000e+00	1.996231e-03	1.500413e+00	-1.501473e+00
1.336595516546447e-03	9.500000e+00	2.005446e-03	1.500413e+00	-1.501473e+00
1.342764961137869e-03	9.500000e+00	2.014702e-03	1.500413e+00	-1.501473e+00
1.348962882591659e-03	9.500000e+00	2.024002e-03	1.500413e+00	-1.501473e+00
1.355189412351041e-03	9.500000e+00	2.033344e-03	1.500413e+00	-1.501473e+00
1.361444682465956e-03	9.500000e+00	2.042729e-03	1.500413e+00	-1.501473e+00
1.367728825595855e-03	9.500000e+00	2.052158e-03	1.500413e+00	-1.501473e+00
1.374041975012521e-03	9.500000e+00	2.061631e-03	1.500413e+00	-1.501473e+00
1.380384264602891e-03	9.500000e+00	2.071147e-03	1.500413e+00	-1.501473e+00
1.386755828871895e-03	9.500000e+00	2.080707e-03	1.500413e+00	-1.501473e+00
1.393156802945309e-03	9.500000e+00	2.090311e-03	1.500413e+00	-1.501473e+00
1.399587322572624e-03	9.500000e+00	2.099959e-03	1.500413e+00	-1.501473e+00
1.406047524129920e-03	9.500000e+00	2.109652e-03	1.500413e+00	-1.501473e+00
1.412537544622761e-03	9.500000e+00	2.119390e-03	1.500413e+00	-1.501473e+00
1.419057521689099e-03	9.500000e+00	2.129172e-03	1.500413e+00	-1.501473e+00
1.425607593602195e-03	9.500000e+00	2.139000e-03	1.500413e+00	-1.501473e+00
1.432187899273551e-03	9.500000e+00	2.148873e-03	1.500413e+00	-1.501473e+00
1.438798578255852e-03	9.500000e+00	2.158792e-03	1.500413e+00	-1.501473e+00
1.445439770745934e-03	9.500000e+00	2.168756e-03	1.500413e+00	-1.501473e+00
1.452111617587750e-03	9.500000e+00	2.178767e-03	1.500413e+00	-1.501473e+00
1.458814260275356e-03	9.500000e+00	2.188824e-03	1.500413e+00	-1.501473e+00
1.465547840955919e-03	9.500000e+00	2.198927e-03	1.500413e+00	-1.501473e+00
1.472312502432726e-03	9.500000e+00	2.209076e-03	1.500413e+00	-1.501473e+00
1.479108388168215e-03	9.500000e+00	2.219273e-03	1.500413e+00	-1.501473e+00
1.485935642287015e-03	9.500000e+00	2.229517e-03	1.500413e+00	-1.501472e+00
1.492794409579004e-03	9.500000e+00	2.239808e-03	1.500413e+00	-1.501472e+00
1.499684835502382e-03	9.500000e+00	2.250146e-03	1.500413e+00	-1.501472e+00
1.506607066186750e-03	9.500000e+00	2.260532e-03	1.500413e+00	-1.501472e+00
1.513561248436217e-03	9.500000e+00	2.270966e-03	1.500413e+00	-1.501472e+00
1.520547529732504e-03	9.500000e+00	2.281449e-03	1.500413e+00	-1.501472e+00
1.527566058238081e-03	9.500000e+00	2.291979e-03	1.500413e+00	-1.501472e+00
1.534616982799303e-03	9.500000e+00	2.302559e-03	1.500413e+00	-1.501472e+00
1.541700452949568e-03	9.500000e+00	2.313187e-03	1.500412e+00	-1.501472e+00
1.548816618912490e-03	9.500000e+00	2.323864e-03	1.500412e+00	-1.501472e+00
1.555965631605084e-03	9.500000e+00	2.334590e-03	1.500412e+00	-1.501472e+00
1.563147642640963e-03	9.500000e+00	2.345366e-03	1.500412e+00	-1.501472e+00
1.570362804333562e-03	9.500000e+00	2.356192e-03	1.500412e+00	-1.501472e+00
1.577611269699358e-03	9.500000e+00	2.367068e-03	1.500412e+00	-1.501472e+00
1.584893192461123e-03	9.500000e+00	2.377993e-03	1.500412e+00	-1.501472e+00
1.592208727051180e-03	9.500000e+00	2.388970e-03	1.500412e+00	-1.501472e+00
1.599558028614679e-03	9.500000e+00	2.399997e-03	1.500412e+00	-1.501472e+00
1.606941253012888e-03	9.500000e+00	2.411074e-03	1.500412e+00	-1.501472e+00
1.614358556826497e-03	9.500000e+00	2.422203e-03	1.500412e+00	-1.501472e+00
1.621810097358941e-03	9.500000e+00	2.433384e-03	1.500412e+00	-1.501472e+00
1.629296032639733e-03	9.500000e+00	2.444616e-03	1.500412e+00	-1.501472e+00
1.636816521427819e-03	9.500000e+00	2.455899e-03	1.500412e+00	-1.501472e+00
1.644371723214943e-03	9.500000e+00	2.467235e-03	1.500412e+00	-1.501472e+00
1.651961798229026e-03	9.500000e+00	2.478624e-03	1.500412e+00	-1.501472e+00
1.659586907437572e-03	9.500000e+00	2.490064e-03	1.500412e+00	-1.501472e+00
1.667247212551074e-03	9.500000e+00	2.501558e-03	1.500412e+00	-1.501472e+00
1.674942876026449e-03	9.500000e+00	2.513105e-03	1.500412e+00	-1.501472e+00
1.682674061070479e-03	9.500000e+00	2.524704e-03	1.500412e+00	-1.501472e+00
1.690440931643276e-03	9.500000e+00	2.536358e-03	1.500412e+00	-1.501472e+00
1.698243652461756e-03	9.500000e+00	2.548065e-03	1.500412e+00	-1.501472e+00
1.706082389003136e-03	9.500000e+00	2.559826e-03	1.500412e+00	-1.501472e+00
1.713957307508438e-03	9.500000e+00	2.571642e-03	1.500412e+00	-1.501472e+00
1.721868574986019e-03	9.500000e+00	2.583512e-03	1.500412e+00	-1.501472e+00
1.729816359215114e-03	9.500000e+00	2.595437e-03	1.500412e+00	-1.501472e+00
1.737800828749388e-03	9.500000e+00	2.607417e-03	1.500412e+00	-1.501472e+00
1.745822152920517e-03	9.500000e+00	2.619452e-03	1.500412e+00	-1.501472e+00
1.753880501841774e-03	9.500000e+00	2.631543e-03	1.500412e+00	-1.501472e+00
1.761976046411642e-03	9.500000e+00	2.643690e-03	1.500412e+00	-1.501472e+00
1.770108958317435e-03	9.500000e+00	2.655892e-03	1.500412e+00	-1.501472e+00
1.778279410038937e-03	9.500000e+00	2.668151e-03	1.500412e+00	-1.501472e+00
1.786487574852065e-03	9.500000e+00	2.680467e-03	1.500412e+00	-1.501472e+00
1.794733626832540e-03	9.500000e+00	2.692839e-03	1.500412e+00	-1.501472e+00
1.803017740859583e-03	9.500000e+00	2.705269e-03	1.500412e+00	-1.501472e+00
1.811340092619617e-03	9.500000e+00	2.717756e-03	1.500412e+00	-1.501471e+00
1.819700858609998e-03	9.500000e+00	2.730300e-03	1.500412e+00	-1.501471e+00
1.828100216142758e-03	9.500000e+00	2.742903e-03	1.500412e+00	-1.501471e+00
1.836538343348361e-03	9.500000e+00	2.755563e-03	1.500412e+00	-1.501471e+00
1.845015419179489e-03	9.500000e+00	2.768282e-03	1.500411e+00	-1.501471e+00
1.853531623414827e-03	9.500000e+00	2.781060e-03	1.500411e+00	-1.501471e+00
1.862087136662883e-03	9.500000e+00	2.793897e-03	1.500411e+00	-1.501471e+00
1.870682140365816e-03	9.500000e+00	2.806793e-03	1.500411e+00	-1.501471e+00
1.879316816803284e-03	9.500000e+00	2.819748e-03	1.500411e+00	-1.501471e+00
1.887991349096310e-03	9.500000e+00	2.832764e-03	1.500411e+00	-1.501471e+00
1.896705921211163e-03	9.500000e+00	2.845839e-03	1.500411e+00	-1.501471e+00
1.905460717963264e-03	9.500000e+00	2.858975e-03	1.500411e+00	-1.501471e+00
1.914255925021102e-03	9.500000e+00	2.872171e-03	1.500411e+00	-1.501471e+00
1.923091728910175e-03	9.500000e+00	2.885428e-03	1.500411e+00	-1.501471e+00
1.931968317016941e-03	9.500000e+00	2.898747e-03	1.500411e+00	-1.501471e+00
1.940885877592795e-03	9.500000e+00	2.912127e-03	1.500411e+00	-1.501471e+00
1.949844599758063e-03	9.500000e+00	2.925568e-03	1.500411e+00	-1.501471e+00
1.958844673506007e-03	9.500000e+00	2.939072e-03	1.500411e+00	-1.501471e+00
1.967886289706863e-03	9.500000e+00	2.952638e-03	1.500411e+00	-1.501471e+00
1.976969640111879e-03	9.500000e+00	2.966267e-03	1.500411e+00	-1.501471e+00
1.986094917357390e-03	9.500000e+00	2.979958e-03	1.500411e+00	-1.501471e+00
1.995262314968898e-03	9.500000e+00	2.993713e-03	1.500411e+00	-1.501471e+00
2.004472027365180e-03	9.500000e+00	3.007532e-03	1.500411e+00	-1.501471e+00
2.013724249862407e-03	9.500000e+00	3.021414e-03	1.500411e+00	-1.501471e+00
2.023019178678291e-03	9.500000e+00	3.035360e-03	1.500411e+00	-1.501471e+00
2.032357010936241e-03	9.500000e+00	3.049370e-03	1.500411e+00	-1.501471e+00
2.041737944669549e-03	9.500000e+00	3.063445e-03	1.500411e+00	-1.501471e+00
2.051162178825585e-03	9.500000e+00	3.077586e-03	1.500411e+00	-1.501471e+00
2.060629913270020e-03	9.500000e+00	3.091791e-03	1.500411e+00	-1.501471e+00
2.070141348791062e-03	9.500000e+00	3.106062e-03	1.500411e+00	-1.501471e+00
2.079696687103716e-03	9.500000e+00	3.120399e-03	1.500411e+00	-1.501471e+00
2.089296130854060e-03	9.500000e+00	3.134802e-03	1.500411e+00	-1.501471e+00
2.098939883623545e-03	9.500000e+00	3.149271e-03	1.500411e+00	-1.501471e+00
2.108628149933311e-03	9.500000e+00	3.163808e-03	1.500411e+00	-1.501470e+00
2.118361135248523e-03	9.500000e+00	3.178411e-03	1.500410e+00	-1.501470e+00
2.128139045982733e-03	9.500000e+00	3.193082e-03	1.500410e+00	-1.501470e+00
2.137962089502254e-03	9.500000e+00	3.207820e-03	1.500410e+00	-1.501470e+00
2.147830474130555e-03	9.500000e+00	3.222627e-03	1.500410e+00	-1.501470e+00
2.157744409152689e-03	9.500000e+00	3.237502e-03	1.500410e+00	-1.501470e+00
2.167704104819717e-03	9.500000e+00	3.252445e-03	1.500410e+00	-1.501470e+00
2.177709772353182e-03	9.500000e+00	3.267458e-03	1.500410e+00	-1.501470e+00
2.187761623949575e-03	9.500000e+00	3.282540e-03	1.500410e+00	-1.501470e+00
2.197859872784848e-03	9.500000e+00	3.297691e-03	1.500410e+00	-1.501470e+00
2.208004733018923e-03	9.500000e+00	3.312913e-03	1.500410e+00	-1.501470e+00
2.218196419800242e-03	9.500000e+00	3.328204e-03	1.500410e+00	-1.501470e+00
2.228435149270328e-03	9.500000e+00	3.343567e-03	1.500410e+00	-1.501470e+00
2.238721138568364e-03	9.500000e+00	3.359000e-03	1.500410e+00	-1.501470e+00
2.249054605835805e-03	9.500000e+00	3.374504e-03	1.500410e+00	-1.501470e+00
2.259435770221003e-03	9.500000e+00	3.390080e-03	1.500410e+00	-1.501470e+00
2.269864851883847e-03	9.500000e+00	3.405728e-03	1.500410e+00	-1.501470e+00
2.280342072000443e-03	9.500000e+00	3.421448e-03	1.500410e+00	-1.501470e+00
2.290867652767798e-03	9.500000e+00	3.437240e-03	1.500410e+00	-1.501470e+00
2.301441817408535e-03	9.500000e+00	3.453106e-03	1.500410e+00	-1.501470e+00
2.312064790175621e-03	9.500000e+00	3.469045e-03	1.500410e+00	-1.501470e+00
2.322736796357133e-03	9.500000e+00	3.485057e-03	1.500410e+00	-1.501470e+00
2.333458062281029e-03	9.500000e+00	3.501143e-03	1.500410e+00	-1.501470e+00
2.344228815319949e-03	9.500000e+00	3.517304e-03	1.500410e+00	-1.501470e+00
2.355049283896037e-03	9.500000e+00	3.533539e-03	1.500410e+00	-1.501470e+00
2.365919697485785e-03	9.500000e+00	3.549849e-03	1.500410e+00	-1.501470e+00
2.376840286624904e-03	9.500000e+00	3.566234e-03	1.500410e+00	-1.501470e+00
2.387811282913206e-03	9.500000e+00	3.582695e-03	1.500409e+00	-1.501470e+00
2.398832919019519e-03	9.500000e+00	3.599232e-03	1.500409e+00	-1.501469e+00
2.409905428686623e-03	9.500000e+00	3.615845e-03	1.500409e+00	-1.501469e+00
2.421029046736207e-03	9.500000e+00	3.632535e-03	1.500409e+00	-1.501469e+00
2.432204009073844e-03	9.500000e+00	3.649302e-03	1.500409e+00	-1.501469e+00
2.443430552694001e-03	9.500000e+00	3.666146e-03	1.500409e+00	-1.501469e+00
2.454708915685060e-03	9.500000e+00	3.683068e-03	1.500409e+00	-1.501469e+00
2.466039337234369e-03	9.500000e+00	3.700068e-03	1.500409e+00	-1.501469e+00
2.477422057633316e-03	9.500000e+00	3.717147e-03	1.500409e+00	-1.501469e+00
2.488857318282421e-03	9.500000e+00	3.734304e-03	1.500409e+00	-1.501469e+00
2.500345361696462e-03	9.500000e+00	3.751541e-03	1.500409e+00	-1.501469e+00
2.511886431509611e-03	9.500000e+00	3.768857e-03	1.500409e+00	-1.501469e+00
2.523480772480606e-03	9.500000e+00	3.786253e-03	1.500409e+00	-1.501469e+00
2.535128630497939e-03	9.500000e+00	3.803730e-03	1.500409e+00	-1.501469e+00
2.546830252585073e-03	9.500000e+00	3.821287e-03	1.500409e+00	-1.501469e+00
2.558585886905678e-03	9.500000e+00	3.838925e-03	1.500409e+00	-1.501469e+00
2.570395782768896e-03	9.500000e+00	3.856645e-03	1.500409e+00	-1.501469e+00
2.582260190634629e-03	9.500000e+00	3.874446e-03	1.500409e+00	-1.501469e+00
2.594179362118847e-03	9.500000e+00	3.892330e-03	1.500409e+00	-1.501469e+00
2.606153549998929e-03	9.500000e+00	3.910296e-03	1.500409e+00	-1.501469e+00
2.618183008219019e-03	9.500000e+00	3.928345e-03	1.500409e+00	-1.501469e+00
2.630267991895416e-03	9.500000e+00	3.946477e-03	1.500409e+00	-1.501469e+00
2.642408757321981e-03	9.500000e+00	3.964693e-03	1.500409e+00	-1.501469e+00
2.654605561975574e-03	9.500000e+00	3.982993e-03	1.500409e+00	-1.501469e+00
2.666858664521515e-03	9.500000e+00	4.001378e-03	1.500409e+00	-1.501469e+00
2.679168324819067e-03	9.500000e+00	4.019847e-03	1.500409e+00	-1.501469e+00
2.691534803926952e-03	9.500000e+00	4.038401e-03	1.500408e+00	-1.501469e+00
2.703958364108880e-03	9.500000e+00	4.057042e-03	1.500408e+00	-1.501469e+00
2.716439268839119e-03	9.500000e+00	4.075768e-03	1.500408e+00	-1.501469e+00
2.728977782808078e-03	9.500000e+00	4.094581e-03	1.500408e+00	-1.501468e+00
2.741574171927919e-03	9.500000e+00	4.113480e-03	1.500408e+00	-1.501468e+00
2.754228703338204e-03	9.500000e+00	4.132467e-03	1.500408e+00	-1.501468e+00
2.766941645411549e-03	9.500000e+00	4.151542e-03	1.500408e+00	-1.501468e+00
2.779713267759327e-03	9.500000e+00	4.170704e-03	1.500408e+00	-1.501468e+00
2.792543841237376e-03	9.500000e+00	4.189956e-03	1.500408e+00	-1.501468e+00
2.805433637951752e-03	9.500000e+00	4.209295e-03	1.500408e+00	-1.501468e+00
2.818382931264493e-03	9.500000e+00	4.228724e-03	1.500408e+00	-1.501468e+00
2.831391995799419e-03	9.500000e+00	4.248243e-03	1.500408e+00	-1.501468e+00
2.844461107447955e-03	9.500000e+00	4.267852e-03	1.500408e+00	-1.501468e+00
2.857590543374987e-03	9.500000e+00	4.287551e-03	1.500408e+00	-1.501468e+00
2.870780582024732e-03	9.500000e+00	4.307342e-03	1.500408e+00	-1.501468e+00
2.884031503126647e-03	9.500000e+00	4.327223e-03	1.500408e+00	-1.501468e+00
2.897343587701364e-03	9.500000e+00	4.347197e-03	1.500408e+00	-1.501468e+00
2.910717118066647e-03	9.500000e+00	4.367262e-03	1.500408e+00	-1.501468e+00
2.924152377843377e-03	9.500000e+00	4.387421e-03	1.500408e+00	-1.501468e+00
2.937649651961573e-03	9.500000e+00	4.407672e-03	1.500408e+00	-1.501468e+00
2.951209226666428e-03	9.500000e+00	4.428016e-03	1.500407e+00	-1.501468e+00
2.964831389524386e-03	9.500000e+00	4.448455e-03	1.500407e+00	-1.501468e+00
2.978516429429233e-03	9.500000e+00	4.468988e-03	1.500407e+00	-1.501468e+00
2.992264636608233e-03	9.500000e+00	4.489616e-03	1.500407e+00	-1.501468e+00
3.006076302628275e-03	9.500000e+00	4.510339e-03	1.500407e+00	-1.501468e+00
3.019951720402061e-03	9.500000e+00	4.531158e-03	1.500407e+00	-1.501467e+00
3.033891184194316e-03	9.500000e+00	4.552072e-03	1.500407e+00	-1.501467e+00
3.047894989628029e-03	9.500000e+00	4.573083e-03	1.500407e+00	-1.501467e+00
3.061963433690723e-03	9.500000e+00	4.594192e-03	1.500407e+00	-1.501467e+00
3.076096814740754e-03	9.500000e+00	4.615397e-03	1.500407e+00	-1.501467e+00
3.090295432513637e-03	9.500000e+00	4.636701e-03	1.500407e+00	-1.501467e+00
3.104559588128403e-03	9.500000e+00	4.658103e-03	1.500407e+00	-1.501467e+00
3.118889584093985e-03	9.500000e+00	4.679604e-03	1.500407e+00	-1.501467e+00
3.133285724315633e-03	9.500000e+00	4.701203e-03	1.500407e+00	-1.501467e+00
3.147748314101364e-03	9.500000e+00	4.722903e-03	1.500407e+00	-1.501467e+00
3.162277660168428e-03	9.500000e+00	4.744703e-03	1.500407e+00	-1.501467e+00
3.176874070649820e-03	9.500000e+00	4.766603e-03	1.500407e+00	-1.501467e+00
3.191537855100811e-03	9.500000e+00	4.788605e-03	1.500407e+00	-1.501467e+00
3.206269324505516e-03	9.500000e+00	4.810708e-03	1.500407e+00	-1.501467e+00
3.221068791283485e-03	9.500000e+00	4.832913e-03	1.500407e+00	-1.501467e+00
3.235936569296333e-03	9.500000e+00	4.855220e-03	1.500407e+00	-1.501467e+00
3.250872973854395e-03	9.500000e+00	4.877631e-03	1.500407e+00	-1.501467e+00
3.265878321723410e-03	9.500000e+00	4.900145e-03	1.500406e+00	-1.501467e+00
3.280952931131243e-03	9.500000e+00	4.922763e-03	1.500406e+00	-1.501467e+00
3.296097121774630e-03	9.500000e+00	4.945485e-03	1.500406e+00	-1.501467e+00
3.311311214825964e-03	9.500000e+00	4.968312e-03	1.500406e+00	-1.501467e+00
3.326595532940099e-03	9.500000e+00	4.991245e-03	1.500406e+00	-1.501467e+00
